! MS46122B
! 2032304/20262023
! 4/29/2022 5:36:49 AM
! C:\USERS\ENTUPLE\DOCUMENTS\BT20ECE001-23\DATAFILE#24.S2P
! CHANNEL.1
! TR.MEASUREMENT
! RAW.DATA
# GHZ S RI R 50.0
! FREQ.GHZ         S11RE         S11IM         S21RE         S21IM         S12RE         S12IM         S22RE         S22IM         
!; PortSelection: Port_12
   0.002000000     0.9675489   -0.1629323     0.0000028    0.0000013     0.0000023   -0.0000013     0.9949844    0.0061375 
   0.051990000    -0.4263092    0.8480881    -0.0000021   -0.0000005    -0.0000025    0.0000000     0.9976675   -0.0021741 
   0.101980000    -0.1541228   -0.9263526     0.0000008    0.0000009     0.0000004   -0.0000004     0.9991630   -0.0086160 
   0.151970000     0.4404020    0.8243770    -0.0000001    0.0000006    -0.0000005   -0.0000010     0.9995041   -0.0094403 
   0.201960000    -0.6168138   -0.6876294     0.0000017    0.0000000     0.0000002    0.0000007     0.9999244   -0.0100184 
   0.251950000     0.6783673    0.6332753    -0.0000002   -0.0000003    -0.0000002    0.0000006     1.0002910   -0.0105621 
   0.301940000    -0.7466654   -0.5257185     0.0000010    0.0000002    -0.0000016    0.0000004     1.0006730   -0.0114447 
   0.351930000     0.7382069    0.5482764     0.0000004    0.0000004     0.0000001    0.0000006     1.0004120   -0.0132380 
   0.401920000    -0.7698451   -0.4504224    -0.0000011    0.0000020     0.0000004    0.0000008     0.9998207   -0.0166981 
   0.451910000     0.7457617    0.5278625    -0.0000006   -0.0000002    -0.0000008   -0.0000007     0.9991906   -0.0211953 
   0.501900000    -0.7567036   -0.4356673     0.0000009    0.0000007     0.0000001    0.0000027     0.9982114   -0.0254731 
   0.551890000     0.7270489    0.5427190    -0.0000004    0.0000008    -0.0000006    0.0000008     0.9976668   -0.0299468 
   0.601880000    -0.7246937   -0.4589350     0.0000005    0.0000022    -0.0000017    0.0000015     0.9975405   -0.0323360 
   0.651870000     0.6911752    0.5738643     0.0000003   -0.0000005     0.0000012   -0.0000015     0.9973798   -0.0317537 
   0.701860000    -0.6818436   -0.4949896     0.0000001    0.0000026    -0.0000002    0.0000035     0.9993286   -0.0319231 
   0.751850000     0.6383893    0.6208464     0.0000013    0.0000006     0.0000009   -0.0000018     1.0000450   -0.0295038 
   0.801840000    -0.6211620   -0.5466132     0.0000023    0.0000052     0.0000006    0.0000038     1.0009310   -0.0282815 
   0.851830000     0.5739107    0.6717423     0.0000032   -0.0000025     0.0000032   -0.0000007     1.0012580   -0.0295390 
   0.901820000    -0.5536537   -0.5952405     0.0000027    0.0000044     0.0000003    0.0000069     1.0002290   -0.0310775 
   0.951810000     0.4988584    0.7192812     0.0000030   -0.0000026     0.0000030   -0.0000009     0.9986249   -0.0351031 
   1.001800000    -0.4724302   -0.6490383     0.0000033    0.0000051     0.0000038    0.0000037     0.9970900   -0.0415285 
   1.051790000     0.4220316    0.7505719     0.0000007   -0.0000026     0.0000027   -0.0000015     0.9960434   -0.0469416 
   1.101780000    -0.3890344   -0.6945677     0.0000033    0.0000013     0.0000058    0.0000030     0.9953540   -0.0522334 
   1.151770000     0.3419949    0.7712733     0.0000000   -0.0000034     0.0000012   -0.0000031     0.9959437   -0.0540185 
   1.201760000    -0.3008900   -0.7323543     0.0000063    0.0000025     0.0000088    0.0000036     0.9968761   -0.0557730 
   1.251750000     0.2717093    0.7832046    -0.0000018   -0.0000066     0.0000005   -0.0000068     0.9983138   -0.0540725 
   1.301740000    -0.2115196   -0.7599925     0.0000074    0.0000018     0.0000046   -0.0000008     0.9993865   -0.0525235 
   1.351730000     0.2020831    0.7904362     0.0000035   -0.0000058     0.0000036   -0.0000063     1.0000160   -0.0493701 
   1.401720000    -0.1275923   -0.7737663     0.0000115    0.0000032     0.0000128    0.0000051     0.9993958   -0.0493620 
   1.451710000     0.1323418    0.7923903     0.0000009   -0.0000134     0.0000010   -0.0000169     0.9981288   -0.0512702 
   1.501700000    -0.0669970   -0.7740552     0.0000123   -0.0000115     0.0000139   -0.0000115     0.9967695   -0.0546873 
   1.551690000     0.0790309    0.7861340    -0.0000108   -0.0000169    -0.0000092   -0.0000155     0.9949326   -0.0620982 
   1.601680000    -0.0195411   -0.7704391     0.0000031   -0.0000117     0.0000065   -0.0000109     0.9931591   -0.0697408 
   1.651670000     0.0413761    0.7730647    -0.0000163   -0.0000081    -0.0000149   -0.0000106     0.9923100   -0.0765771 
   1.701660000     0.0185750   -0.7644374     0.0000060   -0.0000093     0.0000086   -0.0000096     0.9923720   -0.0801419 
   1.751650000     0.0244932    0.7551681    -0.0000167   -0.0000092    -0.0000132   -0.0000101     0.9928262   -0.0805445 
   1.801640000     0.0349898   -0.7530255     0.0000028   -0.0000127     0.0000035   -0.0000126     0.9941428   -0.0787179 
   1.851630000     0.0344649    0.7397662    -0.0000203   -0.0000047    -0.0000176   -0.0000043     0.9954848   -0.0745586 
   1.901620000     0.0385158   -0.7363861    -0.0000182   -0.0000311    -0.0000143   -0.0000356     0.9970523   -0.0703700 
   1.951610000     0.0588821    0.7214965    -0.0000296    0.0000140    -0.0000310    0.0000167     0.9972064   -0.0691134 
   2.001600000    -0.0147935   -0.7015642    -0.0000109   -0.0000227    -0.0000093   -0.0000232     0.9968655   -0.0715104 
   2.051590000     0.1130735    0.6886629    -0.0000400    0.0000001    -0.0000394   -0.0000029     0.9950792   -0.0780572 
   2.101580000    -0.1058846   -0.6418974    -0.0000159   -0.0000018    -0.0000199    0.0000046     0.9931464   -0.0878365 
   2.151570000     0.2195652    0.6127990    -0.0000100   -0.0000145    -0.0000084   -0.0000136     0.9902874   -0.0975417 
   2.201560000    -0.2496855   -0.4709816    -0.0000481    0.0000212    -0.0000563    0.0000188     0.9881418   -0.1051817 
   2.251550000     0.3708688    0.2711158     0.0000070    0.0000216     0.0000101    0.0000197     0.9878550   -0.1084289 
   2.301540000    -0.1315763    0.0770114    -0.0000420    0.0000275    -0.0000475    0.0000301     0.9892879   -0.1078591 
   2.351530000    -0.2167018   -0.1346162     0.0000174    0.0000476     0.0000227    0.0000580     0.9904852   -0.1070282 
   2.401520000     0.5554075   -0.0719010    -0.0000237    0.0000194    -0.0000282    0.0000198     0.9925568   -0.1030266 
   2.451510000    -0.4696002    0.2848264     0.0000534    0.0000665     0.0000563    0.0000644     0.9946613   -0.0980343 
   2.501500000     0.5878883   -0.3683098    -0.0000056    0.0000135    -0.0000142    0.0000210     0.9951731   -0.0945207 
   2.551490000    -0.4206466    0.4431973     0.0000691    0.0000370     0.0000620    0.0000391     0.9957592   -0.0957622 
   2.601480000     0.5425774   -0.4647494     0.0000204    0.0000212     0.0000201    0.0000184     0.9942810   -0.1018330 
   2.651470000    -0.3950560    0.4916149     0.0000505   -0.0000126     0.0000582   -0.0000092     0.9916484   -0.1084838 
   2.701460000     0.5182654   -0.4989842     0.0000345    0.0000316     0.0000273    0.0000322     0.9894380   -0.1169025 
   2.751450000    -0.4004228    0.4923536     0.0000394   -0.0000464     0.0000390   -0.0000468     0.9869097   -0.1248918 
   2.801440000     0.5282150   -0.4994032     0.0000309    0.0000045     0.0000253    0.0000089     0.9849078   -0.1304253 
   2.851430000    -0.4117514    0.4746537     0.0000194   -0.0000493     0.0000192   -0.0000498     0.9848824   -0.1321721 
   2.901420000     0.5485704   -0.4959449     0.0000220   -0.0000032     0.0000164   -0.0000036     0.9871031   -0.1316384 
   2.951410000    -0.4265654    0.4539175    -0.0000009   -0.0000376     0.0000016   -0.0000452     0.9883587   -0.1253489 
   3.001400000     0.5827138   -0.4730361     0.0000131   -0.0000047     0.0000108   -0.0000016     0.9915463   -0.1230958 
   3.051390000    -0.4481514    0.4311332    -0.0000010   -0.0000376    -0.0000032   -0.0000360     0.9940080   -0.1198277 
   3.101380000     0.6096321   -0.4396921     0.0000059   -0.0000009     0.0000082   -0.0000068     0.9943153   -0.1174781 
   3.151370000    -0.4739701    0.4049498    -0.0000108   -0.0000244    -0.0000102   -0.0000316     0.9930897   -0.1198864 
   3.201360000     0.6199216   -0.4087706     0.0000005   -0.0000141     0.0000017   -0.0000195     0.9894397   -0.1262809 
   3.251350000    -0.4923096    0.3824109    -0.0000233   -0.0000160    -0.0000215   -0.0000139     0.9855186   -0.1335442 
   3.301340000     0.6213602   -0.3799087    -0.0000017   -0.0000253     0.0000017   -0.0000220     0.9820167   -0.1402427 
   3.351330000    -0.4896800    0.3509563    -0.0000348   -0.0000084    -0.0000354   -0.0000022     0.9795777   -0.1460837 
   3.401320000     0.5634512   -0.3878579     0.0000158   -0.0000150     0.0000151   -0.0000107     0.9799358   -0.1476509 
   3.451310000    -0.3774082    0.3643499    -0.0000384   -0.0000164    -0.0000389   -0.0000172     0.9818370   -0.1474231 
   3.501300000     0.3108934   -0.3693193    -0.0000055    0.0000084    -0.0000088    0.0000086     0.9849218   -0.1483569 
   3.551290000     0.0160540    0.1205545    -0.0000134   -0.0000195    -0.0000121   -0.0000309     0.9874328   -0.1462504 
   3.601280000     0.1216603    0.2166276    -0.0000281    0.0000210    -0.0000209    0.0000191     0.9879308   -0.1455299 
   3.651270000    -0.1991656   -0.3949455    -0.0000049   -0.0000116    -0.0000045   -0.0000160     0.9875372   -0.1463845 
   3.701260000     0.4135638    0.4282438    -0.0000167    0.0000059    -0.0000214    0.0000055     0.9837952   -0.1493798 
   3.751250000    -0.3903033   -0.4328766    -0.0000067    0.0000100    -0.0000088    0.0000103     0.9796616   -0.1544800 
   3.801240000     0.4979234    0.4569784     0.0000107    0.0000055     0.0000054    0.0000062     0.9770664   -0.1585819 
   3.851230000    -0.4283768   -0.4577066    -0.0000233    0.0000128    -0.0000228    0.0000113     0.9760814   -0.1624829 
   3.901220000     0.4921558    0.4900508     0.0000102    0.0000203     0.0000107    0.0000141     0.9754316   -0.1652263 
   3.951210000    -0.4140742   -0.4969641    -0.0000224    0.0000065    -0.0000166   -0.0000069     0.9761810   -0.1685223 
   4.001200000     0.4624687    0.5118693    -0.0000072    0.0000197    -0.0000049    0.0000160     0.9779844   -0.1694776 
   4.051190000    -0.3894106   -0.5157446    -0.0000031    0.0000028     0.0000028    0.0000043     0.9785157   -0.1708567 
   4.101180000     0.4325972    0.5194139    -0.0000034   -0.0000045    -0.0000031   -0.0000010     0.9767905   -0.1720684 
   4.151170000    -0.3663075   -0.5079319    -0.0000112    0.0000140    -0.0000029    0.0000201     0.9738162   -0.1757225 
   4.201160000     0.4169496    0.4927180     0.0000223   -0.0000022     0.0000140    0.0000094     0.9728525   -0.1767276 
   4.251150000    -0.3653907   -0.4458817    -0.0000037    0.0000014    -0.0000073    0.0000086     0.9719514   -0.1788165 
   4.301140000     0.4342133    0.3780627     0.0000086    0.0000060    -0.0000014    0.0000146     0.9692435   -0.1813307 
   4.351130000    -0.3660203   -0.2396247    -0.0000003    0.0000069    -0.0000053    0.0000110     0.9662788   -0.1878939 
   4.401120000     0.3489195    0.0474182    -0.0000015    0.0000093    -0.0000099    0.0000097     0.9681233   -0.1928937 
   4.451110000    -0.0550830    0.1299251    -0.0000026   -0.0000042    -0.0000143   -0.0000018     0.9701316   -0.1906551 
   4.501100000    -0.1879498   -0.1113664     0.0000126    0.0000119     0.0000030    0.0000027     0.9708331   -0.1888977 
   4.551090000     0.4195022   -0.0203243    -0.0000045    0.0000079    -0.0000108    0.0000065     0.9698681   -0.1892778 
   4.601080000    -0.4133549    0.1312801     0.0000086   -0.0000006     0.0000067    0.0000041     0.9680936   -0.1879250 
   4.651070000     0.4874334   -0.2247927     0.0000067    0.0000067     0.0000001    0.0000130     0.9660498   -0.1885719 
   4.701060000    -0.4344852    0.2529081     0.0000105   -0.0000063     0.0000042   -0.0000041     0.9639450   -0.1893311 
   4.751050000     0.4747913   -0.2859360    -0.0000086   -0.0000024     0.0000070   -0.0000049     0.9628403   -0.1947173 
   4.801040000    -0.4142540    0.3072058     0.0000047   -0.0000055    -0.0000016   -0.0000085     0.9608361   -0.2032813 
   4.851030000     0.4564609   -0.3158475     0.0000052    0.0000050     0.0000096    0.0000168     0.9607260   -0.2106240 
   4.901020000    -0.3908609    0.3290470    -0.0000051   -0.0000139     0.0000134   -0.0000021     0.9588900   -0.2186225 
   4.951010000     0.4143533   -0.3532142    -0.0000014    0.0000083     0.0000298    0.0000365     0.9574589   -0.2215085 
   5.001000000    -0.3539396    0.3595052     0.0000153    0.0000013     0.0000583    0.0000035     0.9576209   -0.2192800 
   5.050990000     0.3752145   -0.3787827    -0.0000127    0.0000207     0.0000253    0.0000182     0.9587082   -0.2146891 
   5.100980000    -0.3039912    0.3859321     0.0000379    0.0000267     0.0000604    0.0000169     0.9615813   -0.2088521 
   5.150970000     0.3127197   -0.4161253     0.0000154    0.0000139     0.0000146   -0.0000279     0.9638259   -0.2080775 
   5.200960000    -0.2332891    0.4295664     0.0000115    0.0000305    -0.0000140    0.0000175     0.9646468   -0.2115661 
   5.250950000     0.2288609   -0.4622980     0.0000426    0.0000076     0.0000276   -0.0000043     0.9629770   -0.2174111 
   5.300940000    -0.1554020    0.4799377    -0.0000150   -0.0000183     0.0000008   -0.0000362     0.9577110   -0.2262090 
   5.350930000     0.1425685   -0.5018730     0.0000408    0.0000394     0.0000360    0.0000448     0.9505838   -0.2351754 
   5.400920000    -0.0680585    0.5215150     0.0000112   -0.0000199     0.0000146   -0.0000306     0.9439148   -0.2435398 
   5.450910000     0.0561235   -0.5356083     0.0000392   -0.0000164     0.0000721    0.0000179     0.9392056   -0.2484371 
   5.500900000     0.0296327    0.5358721     0.0000153   -0.0000019     0.0000131   -0.0000050     0.9348595   -0.2519418 
   5.550890000    -0.0559719   -0.5359614     0.0000924   -0.0000507     0.0001158   -0.0000213     0.9315942   -0.2540947 
   5.600880000     0.1272040    0.4974756    -0.0000637   -0.0001822    -0.0000855   -0.0001842     0.9272053   -0.2533667 
   5.650870000    -0.1364383   -0.4158999     0.0001719   -0.0000389     0.0001643   -0.0000344     0.9169919   -0.2436617 
   5.700860000     0.0880522    0.3234713    -0.0002499   -0.0000579    -0.0002149   -0.0001506     0.9089868   -0.2179544 
   5.750850000     0.0638823   -0.3483264    -0.0003988   -0.0002131    -0.0004451   -0.0001851     0.9194981   -0.1966392 
   5.800840000    -0.0575899    0.4308350     0.0001591    0.0002020     0.0001162    0.0000802     0.9316112   -0.1948009 
   5.850830000     0.0440651   -0.4107025    -0.0002585   -0.0000268    -0.0001722    0.0000213     0.9374745   -0.2008860 
   5.900820000    -0.0465494    0.3912638     0.0000850    0.0002144    -0.0000054    0.0002302     0.9394078   -0.2084460 
   5.950810000     0.1697173   -0.3484199    -0.0000135   -0.0000709     0.0000345   -0.0000742     0.9400272   -0.2173066 
   6.000800000    -0.1723460    0.4269525    -0.0000783    0.0001015    -0.0001105    0.0001113     0.9418760   -0.2276861 
   6.050790000     0.2018471   -0.4101032     0.0000729    0.0000335     0.0000740    0.0000214     0.9462855   -0.2316778 
   6.100780000    -0.1814126    0.4176635    -0.0000239    0.0000309    -0.0000179   -0.0000065     0.9509887   -0.2318362 
   6.150770000     0.2385554   -0.3866353    -0.0000224    0.0000746    -0.0000153    0.0000687     0.9557571   -0.2296048 
   6.200760000    -0.1841686    0.3952089     0.0000387    0.0000291     0.0000573    0.0000026     0.9589449   -0.2288829 
   6.250750000     0.2152902   -0.3226415    -0.0000010   -0.0000296     0.0000022   -0.0000028     0.9595295   -0.2287510 
   6.300740000    -0.1766615    0.3066942     0.0000641    0.0000545     0.0000556    0.0000308     0.9572335   -0.2304833 
   6.350730000     0.2183663   -0.1967841     0.0000340   -0.0000516     0.0000220   -0.0000656     0.9525430   -0.2360840 
   6.400720000    -0.2006570    0.1912229     0.0000182   -0.0000104     0.0000098   -0.0000232     0.9493445   -0.2417933 
   6.450710000     0.2335307   -0.0685492     0.0000316   -0.0000193     0.0000151   -0.0000466     0.9456921   -0.2514454 
   6.500700000    -0.2220075    0.0832291    -0.0000188    0.0000130     0.0000050   -0.0000201     0.9435144   -0.2582994 
   6.550690000     0.2373462    0.0467747     0.0000442   -0.0000222     0.0000527   -0.0000356     0.9443176   -0.2630206 
   6.600680000    -0.2203052   -0.0504317    -0.0000633   -0.0000243    -0.0000542   -0.0000408     0.9449160   -0.2660579 
   6.650670000     0.2506390    0.1795468     0.0000486   -0.0000005     0.0000456    0.0000224     0.9479849   -0.2644545 
   6.700660000    -0.2664680   -0.1725758    -0.0000219   -0.0000485    -0.0000106   -0.0000423     0.9486995   -0.2614810 
   6.750650000     0.2840333    0.2513895    -0.0000450   -0.0000178    -0.0000729   -0.0000052     0.9485894   -0.2570780 
   6.800640000    -0.2701294   -0.2170115     0.0000566    0.0000300     0.0000394    0.0000120     0.9493852   -0.2504569 
   6.850630000     0.2666946    0.2836711    -0.0000002   -0.0000807    -0.0000140   -0.0000521     0.9483182   -0.2482277 
   6.900620000    -0.2266714   -0.2361665    -0.0000390    0.0000600    -0.0000479    0.0000321     0.9467179   -0.2520416 
   6.950610000     0.1961994    0.3019721     0.0000434    0.0000134     0.0000532   -0.0000018     0.9436986   -0.2670524 
   7.000600000    -0.1257997   -0.2636421    -0.0000378   -0.0000069    -0.0000136   -0.0000008     0.9399614   -0.2851161 
   7.050590000     0.0920839    0.3585051    -0.0000205    0.0000138    -0.0000017   -0.0000161     0.9398215   -0.2981258 
   7.100580000    -0.0690271   -0.3233667    -0.0000208    0.0000158    -0.0000197    0.0000502     0.9395643   -0.3059093 
   7.150570000     0.0705661    0.3914532     0.0000167   -0.0000355     0.0000380   -0.0000164     0.9367638   -0.3109017 
   7.200560000    -0.0476026   -0.3308467    -0.0000288   -0.0000209    -0.0000468    0.0000042     0.9367245   -0.3068274 
   7.250550000     0.0625480    0.3667193     0.0000323    0.0000176     0.0000276    0.0000361     0.9396927   -0.2946034 
   7.300540000    -0.0461140   -0.2735404     0.0000431   -0.0000166     0.0000280   -0.0000034     0.9472433   -0.2794652 
   7.350530000     0.0940321    0.2732002    -0.0000046   -0.0000236    -0.0000393   -0.0000103     0.9515582   -0.2690616 
   7.400520000    -0.0622862   -0.0930946     0.0000129    0.0000623     0.0000032    0.0000506     0.9555246   -0.2660015 
   7.450510000     0.0367783    0.0298958     0.0000488   -0.0000144     0.0000176   -0.0000391     0.9547250   -0.2740752 
   7.500500000     0.1218903    0.1641057    -0.0000559   -0.0000025    -0.0000377   -0.0000215     0.9496949   -0.2905001 
   7.550490000    -0.2265230   -0.0813509     0.0000178    0.0000337     0.0000192    0.0000100     0.9426498   -0.3084889 
   7.600480000     0.3323527    0.1829032     0.0000168   -0.0000406     0.0000503   -0.0000220     0.9353949   -0.3231251 
   7.650470000    -0.3613639   -0.0519868    -0.0000360   -0.0000352     0.0000119   -0.0000276     0.9323746   -0.3307199 
   7.700460000     0.3890930    0.1651481    -0.0000156    0.0000042    -0.0000111    0.0000415     0.9339114   -0.3319534 
   7.750450000    -0.3924097   -0.0241489     0.0000380   -0.0000202     0.0000732    0.0000218     0.9391007   -0.3249641 
   7.800440000     0.3878221    0.1524763    -0.0000222   -0.0000492    -0.0000322   -0.0000362     0.9442784   -0.3143322 
   7.850430000    -0.3544302   -0.0219507     0.0000007    0.0000504    -0.0000491    0.0000605     0.9470647   -0.3032616 
